T24D0 774:711.905   SEGGER J-Link V6.86 Log File
T24D0 774:712.193   DLL Compiled: Sep 24 2020 17:31:31
T24D0 774:712.271   Logging started @ 2021-07-18 13:13
T24D0 774:712.366 - 1951.117ms
T24D0 774:712.449 JLINK_SetWarnOutHandler(...)
T24D0 774:712.541 - 0.129ms
T24D0 774:712.619 JLINK_OpenEx(...)
T24D0 774:715.893   Firmware: J-Link ARM-OB STM32 compiled Aug 22 2012 19:52:04
T24D0 774:724.063   Hardware: V7.00
T24D0 774:724.254   S/N: 20090930
T24D0 774:724.403   OEM: SEGGER
T24D0 774:724.545   Feature(s): RDI,FlashDL,FlashBP,JFlash,GDBFull
T24D0 774:728.502   TELNET listener socket opened on port 19021
T24D0 774:732.829   WEBSRV Starting webserver
T24D0 774:733.194   WEBSRV Webserver running on local port 19080
T24D0 774:733.327 - 20.747ms returns "O.K."
T24D0 774:733.422 JLINK_GetEmuCaps()
T24D0 774:733.519 - 0.136ms returns 0x88EA5833
T24D0 774:733.603 JLINK_TIF_GetAvailable(...)
T24D0 774:734.870 - 1.333ms
T24D0 774:734.986 JLINK_SetErrorOutHandler(...)
T24D0 774:735.067 - 0.119ms
T24D0 774:736.299 JLINK_ExecCommand("ProjectFile = "C:\Users\Administrator\Desktop\FOC\FOC½Ì³Ì\foc-tutorial\SimpleDriver\MDK-ARM\JLinkSettings.ini"", ...). 
T24D0 774:737.241 - 0.994ms returns 0x00
T24D0 774:741.581 JLINK_ExecCommand("Device = STM32F405RGTx", ...). 
T24D0 774:744.675   Device "STM32F405RG" selected.
T24D0 774:745.203 - 3.545ms returns 0x00
T24D0 774:745.323 JLINK_GetHardwareVersion()
T24D0 774:745.416 - 0.129ms returns 70000
T24D0 774:745.493 JLINK_GetDLLVersion()
T24D0 774:745.569 - 0.113ms returns 68600
T24D0 774:745.646 JLINK_GetOEMString(...)
T24D0 774:745.724 JLINK_GetFirmwareString(...)
T24D0 774:745.801 - 0.114ms
T24D0 774:754.427 JLINK_GetDLLVersion()
T24D0 774:754.551 - 0.161ms returns 68600
T24D0 774:754.629 JLINK_GetCompileDateTime()
T24D0 774:754.703 - 0.111ms
T24D0 774:758.911 JLINK_GetFirmwareString(...)
T24D0 774:759.026 - 0.152ms
T24D0 774:761.981 JLINK_GetHardwareVersion()
T24D0 774:762.087 - 0.143ms returns 70000
T24D0 774:765.645 JLINK_GetSN()
T24D0 774:765.764 - 0.157ms returns 20090930
T24D0 774:770.387 JLINK_GetOEMString(...)
T24D0 774:776.592 JLINK_TIF_Select(JLINKARM_TIF_SWD)
T24D0 774:780.357 - 3.822ms returns 0x00
T24D0 774:780.460 JLINK_HasError()
T24D0 774:780.539 JLINK_SetSpeed(5000)
T24D0 774:781.774 - 1.291ms
T24D0 774:781.875 JLINK_GetId()
T24D0 774:790.854   Found SW-DP with ID 0x2BA01477
T24D0 774:886.637   Found SW-DP with ID 0x2BA01477
T24D0 774:906.086   Old FW that does not support reading DPIDR via DAP jobs
T24D0 774:934.810   Unknown DP version. Assuming DPv0
T24D0 774:937.929   Scanning AP map to find all available APs
T24D0 774:958.030   AP[1]: Stopped AP scan as end of AP map has been reached
T24D0 774:961.411   AP[0]: AHB-AP (IDR: 0x24770011)
T24D0 774:964.793   Iterating through AP map to find AHB-AP to use
T24D0 774:996.024   AP[0]: Core found
T24D0 774:999.875   AP[0]: AHB-AP ROM base: 0xE00FF000
T24D0 775:017.926   CPUID register: 0x410FC241. Implementer code: 0x41 (ARM)
T24D0 775:021.166   Found Cortex-M4 r0p1, Little endian.
T24D0 775:124.787   -- Max. mem block: 0x00002C18
T24D0 775:124.956   CPU_ReadMem(4 bytes @ 0xE000EDF0)
T24D0 775:128.038   CPU_ReadMem(4 bytes @ 0xE0002000)
T24D0 775:133.106   FPUnit: 6 code (BP) slots and 2 literal slots
T24D0 775:133.342   CPU_ReadMem(4 bytes @ 0xE000EDFC)
T24D0 775:134.688   CPU_WriteMem(4 bytes @ 0xE000EDFC)
T24D0 775:136.091   CPU_ReadMem(4 bytes @ 0xE0001000)
T24D0 775:137.444   CPU_WriteMem(4 bytes @ 0xE0001000)
T24D0 775:138.775   CPU_ReadMem(4 bytes @ 0xE000ED88)
T24D0 775:140.287   CPU_WriteMem(4 bytes @ 0xE000ED88)
T24D0 775:141.678   CPU_ReadMem(4 bytes @ 0xE000ED88)
T24D0 775:143.052   CPU_WriteMem(4 bytes @ 0xE000ED88)
T24D0 775:147.726   CoreSight components:
T24D0 775:151.552   ROMTbl[0] @ E00FF000
T24D0 775:151.720   CPU_ReadMem(64 bytes @ 0xE00FF000)
T24D0 775:153.879   CPU_ReadMem(32 bytes @ 0xE000EFE0)
T24D0 775:159.566   ROMTbl[0][0]: E000E000, CID: B105E00D, PID: 000BB00C SCS-M7
T24D0 775:159.730   CPU_ReadMem(32 bytes @ 0xE0001FE0)
T24D0 775:164.167   ROMTbl[0][1]: E0001000, CID: B105E00D, PID: 003BB002 DWT
T24D0 775:164.404   CPU_ReadMem(32 bytes @ 0xE0002FE0)
T24D0 775:170.179   ROMTbl[0][2]: E0002000, CID: B105E00D, PID: 002BB003 FPB
T24D0 775:170.343   CPU_ReadMem(32 bytes @ 0xE0000FE0)
T24D0 775:175.218   ROMTbl[0][3]: E0000000, CID: B105E00D, PID: 003BB001 ITM
T24D0 775:175.364   CPU_ReadMem(32 bytes @ 0xE0040FE0)
T24D0 775:179.861   ROMTbl[0][4]: E0040000, CID: B105900D, PID: 000BB9A1 TPIU
T24D0 775:180.002   CPU_ReadMem(32 bytes @ 0xE0041FE0)
T24D0 775:185.904   ROMTbl[0][5]: E0041000, CID: B105900D, PID: 000BB925 ETM
T24D0 775:188.455 - 406.733ms returns 0x2BA01477
T24D0 775:188.666 JLINK_GetDLLVersion()
T24D0 775:188.818 - 0.191ms returns 68600
T24D0 775:188.902 JLINK_CORE_GetFound()
T24D0 775:188.984 - 0.119ms returns 0xE0000FF
T24D0 775:189.068 JLINK_GetDebugInfo(0x100 = JLINKARM_ROM_TABLE_ADDR_INDEX)
T24D0 775:189.194   Value=0xE00FF000
T24D0 775:189.316 - 0.284ms returns 0
T24D0 775:192.667 JLINK_GetDebugInfo(0x100 = JLINKARM_ROM_TABLE_ADDR_INDEX)
T24D0 775:192.771   Value=0xE00FF000
T24D0 775:192.883 - 0.255ms returns 0
T24D0 775:192.963 JLINK_GetDebugInfo(0x101 = JLINKARM_DEBUG_INFO_ETM_ADDR_INDEX)
T24D0 775:193.039   Value=0xE0041000
T24D0 775:193.186 - 0.260ms returns 0
T24D0 775:193.267 JLINK_ReadMemEx(0xE0041FD0, 0x20 Bytes, Flags = 0x02000004)
T24D0 775:193.375   CPU_ReadMem(32 bytes @ 0xE0041FD0)
T24D0 775:195.185   Data:  04 00 00 00 00 00 00 00 00 00 00 00 00 00 00 00 ...
T24D0 775:195.356 - 2.128ms returns 32 (0x20)
T24D0 775:195.461 JLINK_GetDebugInfo(0x102 = JLINKARM_DEBUG_INFO_MTB_ADDR_INDEX)
T24D0 775:195.538   Value=0x00000000
T24D0 775:195.651 - 0.227ms returns 0
T24D0 775:195.727 JLINK_GetDebugInfo(0x103 = JLINKARM_DEBUG_INFO_TPIU_ADDR_INDEX)
T24D0 775:195.804   Value=0xE0040000
T24D0 775:195.917 - 0.226ms returns 0
T24D0 775:195.993 JLINK_GetDebugInfo(0x104 = JLINKARM_DEBUG_INFO_ITM_ADDR_INDEX)
T24D0 775:196.094   Value=0xE0000000
T24D0 775:196.223 - 0.266ms returns 0
T24D0 775:196.300 JLINK_GetDebugInfo(0x105 = JLINKARM_DEBUG_INFO_DWT_ADDR_INDEX)
T24D0 775:196.374   Value=0xE0001000
T24D0 775:196.483 - 0.219ms returns 0
T24D0 775:196.559 JLINK_GetDebugInfo(0x106 = JLINKARM_DEBUG_INFO_FPB_ADDR_INDEX)
T24D0 775:196.633   Value=0xE0002000
T24D0 775:196.742 - 0.220ms returns 0
T24D0 775:196.819 JLINK_GetDebugInfo(0x107 = JLINKARM_DEBUG_INFO_NVIC_ADDR_INDEX)
T24D0 775:196.895   Value=0xE000E000
T24D0 775:197.007 - 0.225ms returns 0
T24D0 775:197.083 JLINK_GetDebugInfo(0x10C = JLINKARM_DEBUG_INFO_DBG_ADDR_INDEX)
T24D0 775:197.161   Value=0xE000EDF0
T24D0 775:197.272 - 0.225ms returns 0
T24D0 775:197.347 JLINK_GetDebugInfo(0x01 = Unknown)
T24D0 775:197.421   Value=0x00000001
T24D0 775:197.531 - 0.220ms returns 0
T24D0 775:197.606 JLINK_ReadMemU32(0xE000ED00, 0x1 Items)
T24D0 775:197.689   CPU_ReadMem(4 bytes @ 0xE000ED00)
T24D0 775:198.916   Data:  41 C2 0F 41
T24D0 775:199.125   Debug reg: CPUID
T24D0 775:199.243 - 1.688ms returns 1 (0x1)
T24D0 775:199.341 JLINK_GetDebugInfo(0x10F = JLINKARM_DEBUG_INFO_HAS_CORTEX_M_SECURITY_EXT_INDEX)
T24D0 775:199.440   Value=0x00000000
T24D0 775:199.613 - 0.309ms returns 0
T24D0 775:199.694 JLINK_HasError()
T24D0 775:199.812 JLINK_SetResetType(JLINKARM_CM3_RESET_TYPE_NORMAL)
T24D0 775:199.905 - 0.136ms returns JLINKARM_CM3_RESET_TYPE_NORMAL
T24D0 775:199.990 JLINK_Reset()
T24D0 775:200.107   CPU is running
T24D0 775:200.245   CPU_WriteMem(4 bytes @ 0xE000EDF0)
T24D0 775:201.484   CPU is running
T24D0 775:201.649   CPU_WriteMem(4 bytes @ 0xE000EDFC)
T24D0 775:206.833   Reset: Halt core after reset via DEMCR.VC_CORERESET.
T24D0 775:212.050   Reset: Reset device via AIRCR.SYSRESETREQ.
T24D0 775:212.214   CPU is running
T24D0 775:212.332   CPU_WriteMem(4 bytes @ 0xE000ED0C)
T24D0 775:268.260   CPU_ReadMem(4 bytes @ 0xE000EDF0)
T24D0 775:270.010   CPU_ReadMem(4 bytes @ 0xE000EDF0)
T24D0 775:271.639   CPU is running
T24D0 775:271.805   CPU_WriteMem(4 bytes @ 0xE000EDF0)
T24D0 775:273.591   CPU is running
T24D0 775:273.760   CPU_WriteMem(4 bytes @ 0xE000EDFC)
T24D0 775:280.932   CPU_ReadMem(4 bytes @ 0xE000EDF0)
T24D0 775:287.450   CPU_WriteMem(4 bytes @ 0xE0002000)
T24D0 775:288.882   CPU_ReadMem(4 bytes @ 0xE000EDFC)
T24D0 775:290.258   CPU_ReadMem(4 bytes @ 0xE0001000)
T24D0 775:291.592 - 91.654ms
T24D0 775:291.691 JLINK_Halt()
T24D0 775:291.766 - 0.113ms returns 0x00
T24D0 775:291.846 JLINK_ReadMemU32(0xE000EDF0, 0x1 Items)
T24D0 775:291.928   CPU_ReadMem(4 bytes @ 0xE000EDF0)
T24D0 775:292.970   Data:  03 00 03 00
T24D0 775:293.098   Debug reg: DHCSR
T24D0 775:293.208 - 1.399ms returns 1 (0x1)
T24D0 775:293.293 JLINK_WriteU32_64(0xE000EDF0, 0xA05F0003)
T24D0 775:293.371   Debug reg: DHCSR
T24D0 775:306.996   CPU_WriteMem(4 bytes @ 0xE000EDF0)
T24D0 775:308.608 - 15.401ms returns 0 (0x00000000)
T24D0 775:308.772 JLINK_WriteU32_64(0xE000EDFC, 0x01000000)
T24D0 775:308.912   Debug reg: DEMCR
T24D0 775:309.041   CPU_WriteMem(4 bytes @ 0xE000EDFC)
T24D0 775:310.571 - 1.884ms returns 0 (0x00000000)
T24D0 775:323.881 JLINK_GetHWStatus(...)
T24D0 775:325.233 - 1.423ms returns 0
T24D0 775:336.630 JLINK_GetNumBPUnits(Type = 0xFFFFFF00)
T24D0 775:336.790 - 0.198ms returns 0x06
T24D0 775:336.872 JLINK_GetNumBPUnits(Type = 0xF0)
T24D0 775:336.947 - 0.112ms returns 0x2000
T24D0 775:337.024 JLINK_GetNumWPUnits()
T24D0 775:337.098 - 0.110ms returns 4
T24D0 775:346.375 JLINK_GetSpeed()
T24D0 775:346.487 - 0.151ms returns 4000
T24D0 775:352.818 JLINK_ReadMemU32(0xE000E004, 0x1 Items)
T24D0 775:352.955   CPU_ReadMem(4 bytes @ 0xE000E004)
T24D0 775:354.300   Data:  02 00 00 00
T24D0 775:354.468 - 1.687ms returns 1 (0x1)
T24D0 775:354.551 JLINK_ReadMemU32(0xE000E004, 0x1 Items)
T24D0 775:354.641   CPU_ReadMem(4 bytes @ 0xE000E004)
T24D0 775:356.260   Data:  02 00 00 00
T24D0 775:356.426 - 1.912ms returns 1 (0x1)
T24D0 775:356.508 JLINK_WriteMemEx(0xE0001000, 0x0000001C Bytes, Flags = 0x02000004)
T24D0 775:356.587   Data:  01 00 00 00 00 00 00 00 00 00 00 00 00 00 00 00 ...
T24D0 775:357.093   CPU_WriteMem(28 bytes @ 0xE0001000)
T24D0 775:358.919 - 2.495ms returns 0x1C
T24D0 775:359.056 JLINK_Halt()
T24D0 775:359.134 - 0.115ms returns 0x00
T24D0 775:359.215 JLINK_IsHalted()
T24D0 775:359.292 - 0.116ms returns TRUE
T24D0 775:361.005 JLINK_WriteMem(0x20000000, 0x180 Bytes, ...)
T24D0 775:361.112   Data:  00 BE 0A E0 0D 78 2D 06 68 40 08 24 40 00 00 D3 ...
T24D0 775:361.598   CPU_WriteMem(384 bytes @ 0x20000000)
T24D0 775:367.358 - 6.475ms returns 0x180
T24D0 775:367.552 JLINK_HasError()
T24D0 775:367.674 JLINK_WriteReg(R0, 0x08000000)
T24D0 775:367.755 - 0.118ms returns 0
T24D0 775:367.833 JLINK_WriteReg(R1, 0x0A037A00)
T24D0 775:367.909 - 0.112ms returns 0
T24D0 775:367.987 JLINK_WriteReg(R2, 0x00000001)
T24D0 775:368.061 - 0.112ms returns 0
T24D0 775:368.140 JLINK_WriteReg(R3, 0x00000000)
T24D0 775:368.216 - 0.112ms returns 0
T24D0 775:368.293 JLINK_WriteReg(R4, 0x00000000)
T24D0 775:368.368 - 0.112ms returns 0
T24D0 775:368.445 JLINK_WriteReg(R5, 0x00000000)
T24D0 775:368.520 - 0.112ms returns 0
T24D0 775:368.600 JLINK_WriteReg(R6, 0x00000000)
T24D0 775:368.712 - 0.150ms returns 0
T24D0 775:368.791 JLINK_WriteReg(R7, 0x00000000)
T24D0 775:368.866 - 0.113ms returns 0
T24D0 775:368.944 JLINK_WriteReg(R8, 0x00000000)
T24D0 775:369.025 - 0.117ms returns 0
T24D0 775:369.102 JLINK_WriteReg(R9, 0x2000017C)
T24D0 775:369.179 - 0.115ms returns 0
T24D0 775:369.257 JLINK_WriteReg(R10, 0x00000000)
T24D0 775:369.333 - 0.112ms returns 0
T24D0 775:369.410 JLINK_WriteReg(R11, 0x00000000)
T24D0 775:369.485 - 0.112ms returns 0
T24D0 775:369.562 JLINK_WriteReg(R12, 0x00000000)
T24D0 775:369.675 - 0.150ms returns 0
T24D0 775:369.753 JLINK_WriteReg(R13 (SP), 0x20001000)
T24D0 775:369.828 - 0.112ms returns 0
T24D0 775:369.906 JLINK_WriteReg(R14, 0x20000001)
T24D0 775:369.986 - 0.117ms returns 0
T24D0 775:370.064 JLINK_WriteReg(R15 (PC), 0x20000054)
T24D0 775:370.143 - 0.117ms returns 0
T24D0 775:370.222 JLINK_WriteReg(XPSR, 0x01000000)
T24D0 775:370.299 - 0.114ms returns 0
T24D0 775:370.377 JLINK_WriteReg(MSP, 0x20001000)
T24D0 775:370.457 - 0.118ms returns 0
T24D0 775:370.535 JLINK_WriteReg(PSP, 0x20001000)
T24D0 775:370.640 - 0.142ms returns 0
T24D0 775:370.717 JLINK_WriteReg(CFBP, 0x00000000)
T24D0 775:370.792 - 0.112ms returns 0
T24D0 775:370.871 JLINK_SetBPEx(Addr = 0x20000000, Type = 0xFFFFFFF2)
T24D0 775:370.951   CPU_ReadMem(2 bytes @ 0x20000000)
T24D0 775:371.993 - 1.173ms returns 0x00000001
T24D0 775:372.088 JLINK_Go()
T24D0 775:372.169   CPU_WriteMem(2 bytes @ 0x20000000)
T24D0 775:373.593   CPU_ReadMem(4 bytes @ 0xE0001000)
T24D0 775:374.856   CPU_WriteMem(4 bytes @ 0xE0002008)
T24D0 775:374.983   CPU_WriteMem(4 bytes @ 0xE000200C)
T24D0 775:375.095   CPU_WriteMem(4 bytes @ 0xE0002010)
T24D0 775:375.206   CPU_WriteMem(4 bytes @ 0xE0002014)
T24D0 775:375.318   CPU_WriteMem(4 bytes @ 0xE0002018)
T24D0 775:375.428   CPU_WriteMem(4 bytes @ 0xE000201C)
T24D0 775:378.917   CPU_WriteMem(4 bytes @ 0xE0001004)
T24D0 775:385.110 - 13.101ms
T24D0 775:385.237 JLINK_IsHalted()
T24D0 775:389.880   CPU_ReadMem(2 bytes @ 0x20000000)
T24D0 775:391.445 - 6.248ms returns TRUE
T24D0 775:391.549 JLINK_ReadReg(R15 (PC))
T24D0 775:391.708 - 0.197ms returns 0x20000000
T24D0 775:391.788 JLINK_ClrBPEx(BPHandle = 0x00000001)
T24D0 775:391.865 - 0.114ms returns 0x00
T24D0 775:391.944 JLINK_ReadReg(R0)
T24D0 775:392.019 - 0.113ms returns 0x00000000
T24D0 775:393.090 JLINK_HasError()
T24D0 775:393.186 JLINK_WriteReg(R0, 0x08000000)
T24D0 775:393.267 - 0.118ms returns 0
T24D0 775:393.346 JLINK_WriteReg(R1, 0x00004000)
T24D0 775:393.423 - 0.114ms returns 0
T24D0 775:393.528 JLINK_WriteReg(R2, 0x000000FF)
T24D0 775:393.618 - 0.126ms returns 0
T24D0 775:393.694 JLINK_WriteReg(R3, 0x00000000)
T24D0 775:393.769 - 0.112ms returns 0
T24D0 775:393.845 JLINK_WriteReg(R4, 0x00000000)
T24D0 775:393.919 - 0.113ms returns 0
T24D0 775:393.997 JLINK_WriteReg(R5, 0x00000000)
T24D0 775:394.100 - 0.141ms returns 0
T24D0 775:394.179 JLINK_WriteReg(R6, 0x00000000)
T24D0 775:394.256 - 0.114ms returns 0
T24D0 775:394.333 JLINK_WriteReg(R7, 0x00000000)
T24D0 775:394.410 - 0.114ms returns 0
T24D0 775:394.488 JLINK_WriteReg(R8, 0x00000000)
T24D0 775:394.594 - 0.143ms returns 0
T24D0 775:394.670 JLINK_WriteReg(R9, 0x2000017C)
T24D0 775:394.744 - 0.111ms returns 0
T24D0 775:394.821 JLINK_WriteReg(R10, 0x00000000)
T24D0 775:394.895 - 0.111ms returns 0
T24D0 775:394.971 JLINK_WriteReg(R11, 0x00000000)
T24D0 775:395.046 - 0.112ms returns 0
T24D0 775:395.122 JLINK_WriteReg(R12, 0x00000000)
T24D0 775:395.197 - 0.112ms returns 0
T24D0 775:395.273 JLINK_WriteReg(R13 (SP), 0x20001000)
T24D0 775:395.349 - 0.112ms returns 0
T24D0 775:395.425 JLINK_WriteReg(R14, 0x20000001)
T24D0 775:395.501 - 0.151ms returns 0
T24D0 775:395.615 JLINK_WriteReg(R15 (PC), 0x20000020)
T24D0 775:395.691 - 0.113ms returns 0
T24D0 775:395.770 JLINK_WriteReg(XPSR, 0x01000000)
T24D0 775:395.846 - 0.113ms returns 0
T24D0 775:395.922 JLINK_WriteReg(MSP, 0x20001000)
T24D0 775:395.997 - 0.112ms returns 0
T24D0 775:396.074 JLINK_WriteReg(PSP, 0x20001000)
T24D0 775:396.149 - 0.112ms returns 0
T24D0 775:396.225 JLINK_WriteReg(CFBP, 0x00000000)
T24D0 775:396.300 - 0.111ms returns 0
T24D0 775:396.376 JLINK_SetBPEx(Addr = 0x20000000, Type = 0xFFFFFFF2)
T24D0 775:396.452 - 0.112ms returns 0x00000002
T24D0 775:396.588 JLINK_Go()
T24D0 775:396.684   CPU_ReadMem(4 bytes @ 0xE0001000)
T24D0 775:402.518 - 6.057ms
T24D0 775:402.694 JLINK_IsHalted()
T24D0 775:403.850 - 1.228ms returns FALSE
T24D0 775:403.971 JLINK_HasError()
T24D0 776:800.872 JLINK_IsHalted()
T24D0 776:806.032   CPU_ReadMem(2 bytes @ 0x20000000)
T24D0 776:807.473 - 6.687ms returns TRUE
T24D0 776:807.607 JLINK_ReadReg(R15 (PC))
T24D0 776:807.690 - 0.120ms returns 0x20000000
T24D0 776:807.771 JLINK_ClrBPEx(BPHandle = 0x00000002)
T24D0 776:807.854 - 0.121ms returns 0x00
T24D0 776:807.932 JLINK_ReadReg(R0)
T24D0 776:808.009 - 0.116ms returns 0x00000000
T24D0 776:808.552 JLINK_HasError()
T24D0 776:808.658 JLINK_WriteReg(R0, 0x08004000)
T24D0 776:808.738 - 0.228ms returns 0
T24D0 776:808.930 JLINK_WriteReg(R1, 0x00004000)
T24D0 776:809.006 - 0.114ms returns 0
T24D0 776:809.084 JLINK_WriteReg(R2, 0x000000FF)
T24D0 776:809.159 - 0.111ms returns 0
T24D0 776:809.235 JLINK_WriteReg(R3, 0x00000000)
T24D0 776:809.312 - 0.118ms returns 0
T24D0 776:809.393 JLINK_WriteReg(R4, 0x00000000)
T24D0 776:809.467 - 0.111ms returns 0
T24D0 776:809.543 JLINK_WriteReg(R5, 0x00000000)
T24D0 776:809.617 - 0.111ms returns 0
T24D0 776:809.693 JLINK_WriteReg(R6, 0x00000000)
T24D0 776:809.768 - 0.111ms returns 0
T24D0 776:809.843 JLINK_WriteReg(R7, 0x00000000)
T24D0 776:809.918 - 0.113ms returns 0
T24D0 776:809.996 JLINK_WriteReg(R8, 0x00000000)
T24D0 776:810.071 - 0.112ms returns 0
T24D0 776:810.147 JLINK_WriteReg(R9, 0x2000017C)
T24D0 776:810.222 - 0.112ms returns 0
T24D0 776:810.299 JLINK_WriteReg(R10, 0x00000000)
T24D0 776:810.373 - 0.111ms returns 0
T24D0 776:810.448 JLINK_WriteReg(R11, 0x00000000)
T24D0 776:810.522 - 0.111ms returns 0
T24D0 776:810.598 JLINK_WriteReg(R12, 0x00000000)
T24D0 776:810.672 - 0.110ms returns 0
T24D0 776:810.749 JLINK_WriteReg(R13 (SP), 0x20001000)
T24D0 776:810.860 - 0.148ms returns 0
T24D0 776:810.937 JLINK_WriteReg(R14, 0x20000001)
T24D0 776:811.011 - 0.111ms returns 0
T24D0 776:811.087 JLINK_WriteReg(R15 (PC), 0x20000020)
T24D0 776:811.162 - 0.112ms returns 0
T24D0 776:811.238 JLINK_WriteReg(XPSR, 0x01000000)
T24D0 776:811.314 - 0.112ms returns 0
T24D0 776:811.390 JLINK_WriteReg(MSP, 0x20001000)
T24D0 776:811.464 - 0.111ms returns 0
T24D0 776:811.539 JLINK_WriteReg(PSP, 0x20001000)
T24D0 776:811.614 - 0.111ms returns 0
T24D0 776:811.689 JLINK_WriteReg(CFBP, 0x00000000)
T24D0 776:811.765 - 0.112ms returns 0
T24D0 776:811.841 JLINK_SetBPEx(Addr = 0x20000000, Type = 0xFFFFFFF2)
T24D0 776:811.916 - 0.112ms returns 0x00000003
T24D0 776:811.992 JLINK_Go()
T24D0 776:812.075   CPU_ReadMem(4 bytes @ 0xE0001000)
T24D0 776:817.940 - 6.034ms
T24D0 776:818.074 JLINK_IsHalted()
T24D0 776:819.113 - 1.139ms returns FALSE
T24D0 776:819.259 JLINK_HasError()
T24D0 776:927.532 JLINK_IsHalted()
T24D0 776:932.178   CPU_ReadMem(2 bytes @ 0x20000000)
T24D0 776:933.572 - 6.081ms returns TRUE
T24D0 776:933.655 JLINK_ReadReg(R15 (PC))
T24D0 776:933.733 - 0.115ms returns 0x20000000
T24D0 776:933.810 JLINK_ClrBPEx(BPHandle = 0x00000003)
T24D0 776:933.885 - 0.113ms returns 0x00
T24D0 776:933.963 JLINK_ReadReg(R0)
T24D0 776:934.037 - 0.111ms returns 0x00000000
T24D0 776:934.367 JLINK_HasError()
T24D0 776:934.484 JLINK_WriteReg(R0, 0x00000001)
T24D0 776:934.574 - 0.127ms returns 0
T24D0 776:934.651 JLINK_WriteReg(R1, 0x00004000)
T24D0 776:934.730 - 0.155ms returns 0
T24D0 776:934.846 JLINK_WriteReg(R2, 0x000000FF)
T24D0 776:934.922 - 0.114ms returns 0
T24D0 776:935.000 JLINK_WriteReg(R3, 0x00000000)
T24D0 776:935.076 - 0.112ms returns 0
T24D0 776:935.152 JLINK_WriteReg(R4, 0x00000000)
T24D0 776:935.268 - 0.154ms returns 0
T24D0 776:935.346 JLINK_WriteReg(R5, 0x00000000)
T24D0 776:935.494 - 0.188ms returns 0
T24D0 776:935.576 JLINK_WriteReg(R6, 0x00000000)
T24D0 776:935.680 - 0.143ms returns 0
T24D0 776:935.759 JLINK_WriteReg(R7, 0x00000000)
T24D0 776:935.833 - 0.112ms returns 0
T24D0 776:935.911 JLINK_WriteReg(R8, 0x00000000)
T24D0 776:935.985 - 0.112ms returns 0
T24D0 776:936.061 JLINK_WriteReg(R9, 0x2000017C)
T24D0 776:936.135 - 0.111ms returns 0
T24D0 776:936.212 JLINK_WriteReg(R10, 0x00000000)
T24D0 776:936.288 - 0.113ms returns 0
T24D0 776:936.365 JLINK_WriteReg(R11, 0x00000000)
T24D0 776:936.471 - 0.143ms returns 0
T24D0 776:936.549 JLINK_WriteReg(R12, 0x00000000)
T24D0 776:936.624 - 0.111ms returns 0
T24D0 776:936.700 JLINK_WriteReg(R13 (SP), 0x20001000)
T24D0 776:936.775 - 0.112ms returns 0
T24D0 776:936.851 JLINK_WriteReg(R14, 0x20000001)
T24D0 776:936.925 - 0.112ms returns 0
T24D0 776:937.004 JLINK_WriteReg(R15 (PC), 0x20000082)
T24D0 776:937.079 - 0.112ms returns 0
T24D0 776:937.156 JLINK_WriteReg(XPSR, 0x01000000)
T24D0 776:937.230 - 0.111ms returns 0
T24D0 776:937.306 JLINK_WriteReg(MSP, 0x20001000)
T24D0 776:937.383 - 0.145ms returns 0
T24D0 776:937.491 JLINK_WriteReg(PSP, 0x20001000)
T24D0 776:937.566 - 0.113ms returns 0
T24D0 776:937.643 JLINK_WriteReg(CFBP, 0x00000000)
T24D0 776:937.717 - 0.111ms returns 0
T24D0 776:937.794 JLINK_SetBPEx(Addr = 0x20000000, Type = 0xFFFFFFF2)
T24D0 776:937.870 - 0.113ms returns 0x00000004
T24D0 776:937.946 JLINK_Go()
T24D0 776:938.029   CPU_ReadMem(4 bytes @ 0xE0001000)
T24D0 776:944.255 - 6.357ms
T24D0 776:944.347 JLINK_IsHalted()
T24D0 776:949.097   CPU_ReadMem(2 bytes @ 0x20000000)
T24D0 776:950.542 - 6.238ms returns TRUE
T24D0 776:950.629 JLINK_ReadReg(R15 (PC))
T24D0 776:950.707 - 0.118ms returns 0x20000000
T24D0 776:950.787 JLINK_ClrBPEx(BPHandle = 0x00000004)
T24D0 776:950.863 - 0.112ms returns 0x00
T24D0 776:950.940 JLINK_ReadReg(R0)
T24D0 776:951.016 - 0.113ms returns 0x00000000
T24D0 777:008.838 JLINK_WriteMem(0x20000000, 0x180 Bytes, ...)
T24D0 777:008.953   Data:  00 BE 0A E0 0D 78 2D 06 68 40 08 24 40 00 00 D3 ...
T24D0 777:009.095   CPU_WriteMem(384 bytes @ 0x20000000)
T24D0 777:014.940 - 6.187ms returns 0x180
T24D0 777:015.097 JLINK_HasError()
T24D0 777:015.184 JLINK_WriteReg(R0, 0x08000000)
T24D0 777:015.280 - 0.136ms returns 0
T24D0 777:015.363 JLINK_WriteReg(R1, 0x0A037A00)
T24D0 777:015.440 - 0.114ms returns 0
T24D0 777:015.519 JLINK_WriteReg(R2, 0x00000002)
T24D0 777:015.594 - 0.113ms returns 0
T24D0 777:015.672 JLINK_WriteReg(R3, 0x00000000)
T24D0 777:015.748 - 0.113ms returns 0
T24D0 777:015.824 JLINK_WriteReg(R4, 0x00000000)
T24D0 777:015.901 - 0.114ms returns 0
T24D0 777:015.980 JLINK_WriteReg(R5, 0x00000000)
T24D0 777:016.058 - 0.115ms returns 0
T24D0 777:016.135 JLINK_WriteReg(R6, 0x00000000)
T24D0 777:016.235 - 0.173ms returns 0
T24D0 777:016.353 JLINK_WriteReg(R7, 0x00000000)
T24D0 777:016.432 - 0.144ms returns 0
T24D0 777:016.595 JLINK_WriteReg(R8, 0x00000000)
T24D0 777:016.701 - 0.143ms returns 0
T24D0 777:016.799 JLINK_WriteReg(R9, 0x2000017C)
T24D0 777:016.975 - 0.216ms returns 0
T24D0 777:017.056 JLINK_WriteReg(R10, 0x00000000)
T24D0 777:017.135 - 0.149ms returns 0
T24D0 777:017.253 JLINK_WriteReg(R11, 0x00000000)
T24D0 777:017.339 - 0.142ms returns 0
T24D0 777:017.439 JLINK_WriteReg(R12, 0x00000000)
T24D0 777:017.516 - 0.114ms returns 0
T24D0 777:017.594 JLINK_WriteReg(R13 (SP), 0x20001000)
T24D0 777:017.699 - 0.143ms returns 0
T24D0 777:017.778 JLINK_WriteReg(R14, 0x20000001)
T24D0 777:017.855 - 0.115ms returns 0
T24D0 777:017.934 JLINK_WriteReg(R15 (PC), 0x20000054)
T24D0 777:018.013 - 0.116ms returns 0
T24D0 777:018.090 JLINK_WriteReg(XPSR, 0x01000000)
T24D0 777:018.204 - 0.153ms returns 0
T24D0 777:018.297 JLINK_WriteReg(MSP, 0x20001000)
T24D0 777:018.372 - 0.112ms returns 0
T24D0 777:018.449 JLINK_WriteReg(PSP, 0x20001000)
T24D0 777:018.524 - 0.112ms returns 0
T24D0 777:018.601 JLINK_WriteReg(CFBP, 0x00000000)
T24D0 777:018.675 - 0.111ms returns 0
T24D0 777:018.752 JLINK_SetBPEx(Addr = 0x20000000, Type = 0xFFFFFFF2)
T24D0 777:018.834   CPU_ReadMem(2 bytes @ 0x20000000)
T24D0 777:020.142 - 1.520ms returns 0x00000005
T24D0 777:020.323 JLINK_Go()
T24D0 777:020.408   CPU_WriteMem(2 bytes @ 0x20000000)
T24D0 777:022.103   CPU_ReadMem(4 bytes @ 0xE0001000)
T24D0 777:028.123 - 7.936ms
T24D0 777:028.309 JLINK_IsHalted()
T24D0 777:033.063   CPU_ReadMem(2 bytes @ 0x20000000)
T24D0 777:034.483 - 6.273ms returns TRUE
T24D0 777:034.631 JLINK_ReadReg(R15 (PC))
T24D0 777:034.713 - 0.119ms returns 0x20000000
T24D0 777:034.794 JLINK_ClrBPEx(BPHandle = 0x00000005)
T24D0 777:034.872 - 0.116ms returns 0x00
T24D0 777:034.951 JLINK_ReadReg(R0)
T24D0 777:035.026 - 0.113ms returns 0x00000000
T24D0 777:035.438 JLINK_WriteMem(0x20000180, 0x280 Bytes, ...)
T24D0 777:035.526   Data:  B0 0C 00 20 A1 01 00 08 71 45 00 08 9D 3F 00 08 ...
T24D0 777:035.691   CPU_WriteMem(640 bytes @ 0x20000180)
T24D0 777:044.321 - 8.968ms returns 0x280
T24D0 777:044.452 JLINK_WriteMem(0x20000400, 0x180 Bytes, ...)
T24D0 777:044.532   Data:  30 EE C0 0A DF ED 10 0A 60 EE 20 0A BC EE E0 0A ...
T24D0 777:044.657   CPU_WriteMem(384 bytes @ 0x20000400)
T24D0 777:050.826 - 6.428ms returns 0x180
T24D0 777:050.925 JLINK_HasError()
T24D0 777:051.003 JLINK_WriteReg(R0, 0x08000000)
T24D0 777:051.082 - 0.152ms returns 0
T24D0 777:051.224 JLINK_WriteReg(R1, 0x00000400)
T24D0 777:051.302 - 0.117ms returns 0
T24D0 777:051.381 JLINK_WriteReg(R2, 0x20000180)
T24D0 777:051.456 - 0.112ms returns 0
T24D0 777:051.533 JLINK_WriteReg(R3, 0x00000000)
T24D0 777:051.610 - 0.114ms returns 0
T24D0 777:051.686 JLINK_WriteReg(R4, 0x00000000)
T24D0 777:051.761 - 0.111ms returns 0
T24D0 777:051.836 JLINK_WriteReg(R5, 0x00000000)
T24D0 777:051.910 - 0.111ms returns 0
T24D0 777:051.986 JLINK_WriteReg(R6, 0x00000000)
T24D0 777:052.062 - 0.148ms returns 0
T24D0 777:052.177 JLINK_WriteReg(R7, 0x00000000)
T24D0 777:052.267 - 0.128ms returns 0
T24D0 777:052.344 JLINK_WriteReg(R8, 0x00000000)
T24D0 777:052.420 - 0.148ms returns 0
T24D0 777:052.532 JLINK_WriteReg(R9, 0x2000017C)
T24D0 777:052.608 - 0.113ms returns 0
T24D0 777:052.685 JLINK_WriteReg(R10, 0x00000000)
T24D0 777:052.761 - 0.114ms returns 0
T24D0 777:052.838 JLINK_WriteReg(R11, 0x00000000)
T24D0 777:052.950 - 0.148ms returns 0
T24D0 777:053.027 JLINK_WriteReg(R12, 0x00000000)
T24D0 777:053.129 - 0.153ms returns 0
T24D0 777:053.220 JLINK_WriteReg(R13 (SP), 0x20001000)
T24D0 777:053.299 - 0.144ms returns 0
T24D0 777:053.406 JLINK_WriteReg(R14, 0x20000001)
T24D0 777:053.481 - 0.112ms returns 0
T24D0 777:053.558 JLINK_WriteReg(R15 (PC), 0x20000108)
T24D0 777:053.632 - 0.111ms returns 0
T24D0 777:053.708 JLINK_WriteReg(XPSR, 0x01000000)
T24D0 777:053.784 - 0.113ms returns 0
T24D0 777:053.860 JLINK_WriteReg(MSP, 0x20001000)
T24D0 777:053.935 - 0.111ms returns 0
T24D0 777:054.011 JLINK_WriteReg(PSP, 0x20001000)
T24D0 777:054.087 - 0.148ms returns 0
T24D0 777:054.199 JLINK_WriteReg(CFBP, 0x00000000)
T24D0 777:054.275 - 0.112ms returns 0
T24D0 777:054.351 JLINK_SetBPEx(Addr = 0x20000000, Type = 0xFFFFFFF2)
T24D0 777:054.427 - 0.113ms returns 0x00000006
T24D0 777:054.503 JLINK_Go()
T24D0 777:054.588   CPU_ReadMem(4 bytes @ 0xE0001000)
T24D0 777:060.757 - 6.306ms
T24D0 777:060.853 JLINK_IsHalted()
T24D0 777:062.106 - 1.305ms returns FALSE
T24D0 777:062.207 JLINK_HasError()
T24D0 777:132.088 JLINK_IsHalted()
T24D0 777:137.091   CPU_ReadMem(2 bytes @ 0x20000000)
T24D0 777:138.714 - 6.712ms returns TRUE
T24D0 777:138.872 JLINK_ReadReg(R15 (PC))
T24D0 777:138.979 - 0.146ms returns 0x20000000
T24D0 777:139.060 JLINK_ClrBPEx(BPHandle = 0x00000006)
T24D0 777:139.137 - 0.114ms returns 0x00
T24D0 777:139.222 JLINK_ReadReg(R0)
T24D0 777:139.299 - 0.115ms returns 0x00000000
T24D0 777:139.840 JLINK_WriteMem(0x20000180, 0x280 Bytes, ...)
T24D0 777:139.980   Data:  11 52 84 EA E7 73 1A 43 40 D0 00 9A 62 B3 01 9A ...
T24D0 777:140.102   CPU_WriteMem(640 bytes @ 0x20000180)
T24D0 777:149.166 - 9.410ms returns 0x280
T24D0 777:149.301 JLINK_WriteMem(0x20000400, 0x180 Bytes, ...)
T24D0 777:149.381   Data:  05 D3 03 FA 02 F5 49 1B 04 FA 02 F5 28 44 15 1E ...
T24D0 777:149.510   CPU_WriteMem(384 bytes @ 0x20000400)
T24D0 777:155.516 - 6.298ms returns 0x180
T24D0 777:155.652 JLINK_HasError()
T24D0 777:155.736 JLINK_WriteReg(R0, 0x08000400)
T24D0 777:155.822 - 0.130ms returns 0
T24D0 777:155.911 JLINK_WriteReg(R1, 0x00000400)
T24D0 777:155.989 - 0.115ms returns 0
T24D0 777:156.072 JLINK_WriteReg(R2, 0x20000180)
T24D0 777:156.152 - 0.117ms returns 0
T24D0 777:156.230 JLINK_WriteReg(R3, 0x00000000)
T24D0 777:156.307 - 0.114ms returns 0
T24D0 777:156.384 JLINK_WriteReg(R4, 0x00000000)
T24D0 777:156.460 - 0.114ms returns 0
T24D0 777:156.540 JLINK_WriteReg(R5, 0x00000000)
T24D0 777:156.615 - 0.111ms returns 0
T24D0 777:156.691 JLINK_WriteReg(R6, 0x00000000)
T24D0 777:156.766 - 0.112ms returns 0
T24D0 777:156.845 JLINK_WriteReg(R7, 0x00000000)
T24D0 777:156.919 - 0.111ms returns 0
T24D0 777:156.996 JLINK_WriteReg(R8, 0x00000000)
T24D0 777:157.073 - 0.114ms returns 0
T24D0 777:157.151 JLINK_WriteReg(R9, 0x2000017C)
T24D0 777:157.226 - 0.112ms returns 0
T24D0 777:157.306 JLINK_WriteReg(R10, 0x00000000)
T24D0 777:157.382 - 0.113ms returns 0
T24D0 777:157.460 JLINK_WriteReg(R11, 0x00000000)
T24D0 777:157.535 - 0.112ms returns 0
T24D0 777:157.612 JLINK_WriteReg(R12, 0x00000000)
T24D0 777:157.687 - 0.111ms returns 0
T24D0 777:157.765 JLINK_WriteReg(R13 (SP), 0x20001000)
T24D0 777:157.865 - 0.179ms returns 0
T24D0 777:157.984 JLINK_WriteReg(R14, 0x20000001)
T24D0 777:158.060 - 0.113ms returns 0
T24D0 777:158.137 JLINK_WriteReg(R15 (PC), 0x20000108)
T24D0 777:158.212 - 0.111ms returns 0
T24D0 777:158.289 JLINK_WriteReg(XPSR, 0x01000000)
T24D0 777:158.366 - 0.112ms returns 0
T24D0 777:158.442 JLINK_WriteReg(MSP, 0x20001000)
T24D0 777:158.518 - 0.112ms returns 0
T24D0 777:158.596 JLINK_WriteReg(PSP, 0x20001000)
T24D0 777:158.670 - 0.112ms returns 0
T24D0 777:158.748 JLINK_WriteReg(CFBP, 0x00000000)
T24D0 777:158.840 - 0.142ms returns 0
T24D0 777:158.931 JLINK_SetBPEx(Addr = 0x20000000, Type = 0xFFFFFFF2)
T24D0 777:159.007 - 0.112ms returns 0x00000007
T24D0 777:159.084 JLINK_Go()
T24D0 777:159.166   CPU_ReadMem(4 bytes @ 0xE0001000)
T24D0 777:164.941 - 5.910ms
T24D0 777:165.038 JLINK_IsHalted()
T24D0 777:166.185 - 1.199ms returns FALSE
T24D0 777:166.282 JLINK_HasError()
T24D0 777:167.840 JLINK_IsHalted()
T24D0 777:169.259 - 1.471ms returns FALSE
T24D0 777:169.355 JLINK_HasError()
T24D0 777:170.851 JLINK_IsHalted()
T24D0 777:176.018   CPU_ReadMem(2 bytes @ 0x20000000)
T24D0 777:177.432 - 6.635ms returns TRUE
T24D0 777:177.530 JLINK_ReadReg(R15 (PC))
T24D0 777:177.611 - 0.119ms returns 0x20000000
T24D0 777:177.688 JLINK_ClrBPEx(BPHandle = 0x00000007)
T24D0 777:177.784 - 0.151ms returns 0x00
T24D0 777:177.879 JLINK_ReadReg(R0)
T24D0 777:177.955 - 0.114ms returns 0x00000000
T24D0 777:178.390 JLINK_WriteMem(0x20000180, 0x280 Bytes, ...)
T24D0 777:178.477   Data:  44 EA 47 54 0A 30 02 D5 00 20 01 46 E9 E7 01 05 ...
T24D0 777:178.596   CPU_WriteMem(640 bytes @ 0x20000180)
T24D0 777:187.481 - 9.168ms returns 0x280
T24D0 777:187.604 JLINK_WriteMem(0x20000400, 0x180 Bytes, ...)
T24D0 777:187.680   Data:  70 BD 70 B5 05 46 AC 6B 40 20 20 64 60 6C 40 F0 ...
T24D0 777:187.802   CPU_WriteMem(384 bytes @ 0x20000400)
T24D0 777:193.895 - 6.342ms returns 0x180
T24D0 777:193.992 JLINK_HasError()
T24D0 777:194.074 JLINK_WriteReg(R0, 0x08000800)
T24D0 777:194.152 - 0.116ms returns 0
T24D0 777:194.230 JLINK_WriteReg(R1, 0x00000400)
T24D0 777:194.305 - 0.112ms returns 0
T24D0 777:194.382 JLINK_WriteReg(R2, 0x20000180)
T24D0 777:194.458 - 0.114ms returns 0
T24D0 777:194.537 JLINK_WriteReg(R3, 0x00000000)
T24D0 777:194.616 - 0.116ms returns 0
T24D0 777:194.695 JLINK_WriteReg(R4, 0x00000000)
T24D0 777:194.808 - 0.149ms returns 0
T24D0 777:194.885 JLINK_WriteReg(R5, 0x00000000)
T24D0 777:194.962 - 0.113ms returns 0
T24D0 777:195.039 JLINK_WriteReg(R6, 0x00000000)
T24D0 777:195.114 - 0.111ms returns 0
T24D0 777:195.191 JLINK_WriteReg(R7, 0x00000000)
T24D0 777:195.269 - 0.115ms returns 0
T24D0 777:195.346 JLINK_WriteReg(R8, 0x00000000)
T24D0 777:195.421 - 0.113ms returns 0
T24D0 777:195.500 JLINK_WriteReg(R9, 0x2000017C)
T24D0 777:195.577 - 0.113ms returns 0
T24D0 777:195.654 JLINK_WriteReg(R10, 0x00000000)
T24D0 777:195.758 - 0.141ms returns 0
T24D0 777:195.835 JLINK_WriteReg(R11, 0x00000000)
T24D0 777:195.910 - 0.112ms returns 0
T24D0 777:195.987 JLINK_WriteReg(R12, 0x00000000)
T24D0 777:196.063 - 0.113ms returns 0
T24D0 777:196.140 JLINK_WriteReg(R13 (SP), 0x20001000)
T24D0 777:196.216 - 0.113ms returns 0
T24D0 777:196.295 JLINK_WriteReg(R14, 0x20000001)
T24D0 777:196.369 - 0.111ms returns 0
T24D0 777:196.447 JLINK_WriteReg(R15 (PC), 0x20000108)
T24D0 777:196.522 - 0.112ms returns 0
T24D0 777:196.599 JLINK_WriteReg(XPSR, 0x01000000)
T24D0 777:196.675 - 0.143ms returns 0
T24D0 777:196.784 JLINK_WriteReg(MSP, 0x20001000)
T24D0 777:196.858 - 0.111ms returns 0
T24D0 777:196.936 JLINK_WriteReg(PSP, 0x20001000)
T24D0 777:197.011 - 0.111ms returns 0
T24D0 777:197.087 JLINK_WriteReg(CFBP, 0x00000000)
T24D0 777:197.162 - 0.184ms returns 0
T24D0 777:197.318 JLINK_SetBPEx(Addr = 0x20000000, Type = 0xFFFFFFF2)
T24D0 777:197.395 - 0.114ms returns 0x00000008
T24D0 777:197.473 JLINK_Go()
T24D0 777:197.554   CPU_ReadMem(4 bytes @ 0xE0001000)
T24D0 777:203.263 - 5.869ms
T24D0 777:203.388 JLINK_IsHalted()
T24D0 777:204.398 - 1.134ms returns FALSE
T24D0 777:204.599 JLINK_HasError()
T24D0 777:208.703 JLINK_IsHalted()
T24D0 777:213.479   CPU_ReadMem(2 bytes @ 0x20000000)
T24D0 777:214.877 - 6.225ms returns TRUE
T24D0 777:214.972 JLINK_ReadReg(R15 (PC))
T24D0 777:215.051 - 0.117ms returns 0x20000000
T24D0 777:215.131 JLINK_ClrBPEx(BPHandle = 0x00000008)
T24D0 777:215.207 - 0.113ms returns 0x00
T24D0 777:215.285 JLINK_ReadReg(R0)
T24D0 777:215.362 - 0.113ms returns 0x00000000
T24D0 777:215.860 JLINK_WriteMem(0x20000180, 0x280 Bytes, ...)
T24D0 777:215.947   Data:  9A 60 70 47 00 23 01 40 01 00 00 0F 10 B5 03 F0 ...
T24D0 777:216.065   CPU_WriteMem(640 bytes @ 0x20000180)
T24D0 777:224.771 - 8.974ms returns 0x280
T24D0 777:224.878 JLINK_WriteMem(0x20000400, 0x180 Bytes, ...)
T24D0 777:224.954   Data:  40 9A F0 EE 60 9A 51 EC 19 0B 81 F0 00 41 41 EC ...
T24D0 777:225.073   CPU_WriteMem(384 bytes @ 0x20000400)
T24D0 777:230.890 - 6.097ms returns 0x180
T24D0 777:231.026 JLINK_HasError()
T24D0 777:231.114 JLINK_WriteReg(R0, 0x08000C00)
T24D0 777:231.197 - 0.122ms returns 0
T24D0 777:231.278 JLINK_WriteReg(R1, 0x00000400)
T24D0 777:231.366 - 0.126ms returns 0
T24D0 777:231.446 JLINK_WriteReg(R2, 0x20000180)
T24D0 777:231.524 - 0.116ms returns 0
T24D0 777:231.607 JLINK_WriteReg(R3, 0x00000000)
T24D0 777:231.730 - 0.161ms returns 0
T24D0 777:231.810 JLINK_WriteReg(R4, 0x00000000)
T24D0 777:231.886 - 0.113ms returns 0
T24D0 777:231.963 JLINK_WriteReg(R5, 0x00000000)
T24D0 777:232.038 - 0.111ms returns 0
T24D0 777:232.114 JLINK_WriteReg(R6, 0x00000000)
T24D0 777:232.192 - 0.115ms returns 0
T24D0 777:232.270 JLINK_WriteReg(R7, 0x00000000)
T24D0 777:232.346 - 0.113ms returns 0
T24D0 777:232.423 JLINK_WriteReg(R8, 0x00000000)
T24D0 777:232.498 - 0.112ms returns 0
T24D0 777:232.575 JLINK_WriteReg(R9, 0x2000017C)
T24D0 777:232.689 - 0.151ms returns 0
T24D0 777:232.768 JLINK_WriteReg(R10, 0x00000000)
T24D0 777:232.844 - 0.113ms returns 0
T24D0 777:232.922 JLINK_WriteReg(R11, 0x00000000)
T24D0 777:232.998 - 0.112ms returns 0
T24D0 777:233.074 JLINK_WriteReg(R12, 0x00000000)
T24D0 777:233.149 - 0.111ms returns 0
T24D0 777:233.225 JLINK_WriteReg(R13 (SP), 0x20001000)
T24D0 777:233.301 - 0.112ms returns 0
T24D0 777:233.377 JLINK_WriteReg(R14, 0x20000001)
T24D0 777:233.452 - 0.112ms returns 0
T24D0 777:233.529 JLINK_WriteReg(R15 (PC), 0x20000108)
T24D0 777:233.606 - 0.150ms returns 0
T24D0 777:233.720 JLINK_WriteReg(XPSR, 0x01000000)
T24D0 777:233.847 - 0.177ms returns 0
T24D0 777:233.938 JLINK_WriteReg(MSP, 0x20001000)
T24D0 777:234.012 - 0.112ms returns 0
T24D0 777:234.090 JLINK_WriteReg(PSP, 0x20001000)
T24D0 777:234.206 - 0.153ms returns 0
T24D0 777:234.284 JLINK_WriteReg(CFBP, 0x00000000)
T24D0 777:234.419 - 0.188ms returns 0
T24D0 777:234.513 JLINK_SetBPEx(Addr = 0x20000000, Type = 0xFFFFFFF2)
T24D0 777:234.610 - 0.136ms returns 0x00000009
T24D0 777:234.733 JLINK_Go()
T24D0 777:234.833   CPU_ReadMem(4 bytes @ 0xE0001000)
T24D0 777:241.552 - 6.912ms
T24D0 777:241.698 JLINK_IsHalted()
T24D0 777:243.252 - 1.641ms returns FALSE
T24D0 777:243.390 JLINK_HasError()
T24D0 777:248.716 JLINK_IsHalted()
T24D0 777:253.766   CPU_ReadMem(2 bytes @ 0x20000000)
T24D0 777:255.362 - 6.732ms returns TRUE
T24D0 777:255.498 JLINK_ReadReg(R15 (PC))
T24D0 777:255.610 - 0.174ms returns 0x20000000
T24D0 777:255.718 JLINK_ClrBPEx(BPHandle = 0x00000009)
T24D0 777:255.798 - 0.118ms returns 0x00
T24D0 777:255.878 JLINK_ReadReg(R0)
T24D0 777:255.956 - 0.115ms returns 0x00000000
T24D0 777:256.515 JLINK_WriteMem(0x20000180, 0x280 Bytes, ...)
T24D0 777:256.653   Data:  11 1F 08 1F D4 F8 90 30 98 47 20 7D 03 28 00 DA ...
T24D0 777:256.776   CPU_WriteMem(640 bytes @ 0x20000180)
T24D0 777:265.706 - 9.296ms returns 0x280
T24D0 777:265.863 JLINK_WriteMem(0x20000400, 0x180 Bytes, ...)
T24D0 777:265.950   Data:  41 0A D4 F8 94 00 80 47 10 BD 70 47 70 47 00 00 ...
T24D0 777:266.076   CPU_WriteMem(384 bytes @ 0x20000400)
T24D0 777:272.475 - 6.737ms returns 0x180
T24D0 777:272.653 JLINK_HasError()
T24D0 777:272.738 JLINK_WriteReg(R0, 0x08001000)
T24D0 777:272.821 - 0.121ms returns 0
T24D0 777:272.902 JLINK_WriteReg(R1, 0x00000400)
T24D0 777:272.981 - 0.121ms returns 0
T24D0 777:273.071 JLINK_WriteReg(R2, 0x20000180)
T24D0 777:273.151 - 0.119ms returns 0
T24D0 777:273.231 JLINK_WriteReg(R3, 0x00000000)
T24D0 777:273.308 - 0.114ms returns 0
T24D0 777:273.386 JLINK_WriteReg(R4, 0x00000000)
T24D0 777:273.463 - 0.114ms returns 0
T24D0 777:273.576 JLINK_WriteReg(R5, 0x00000000)
T24D0 777:273.681 - 0.142ms returns 0
T24D0 777:273.759 JLINK_WriteReg(R6, 0x00000000)
T24D0 777:273.837 - 0.121ms returns 0
T24D0 777:273.921 JLINK_WriteReg(R7, 0x00000000)
T24D0 777:273.998 - 0.114ms returns 0
T24D0 777:274.076 JLINK_WriteReg(R8, 0x00000000)
T24D0 777:274.153 - 0.113ms returns 0
T24D0 777:274.230 JLINK_WriteReg(R9, 0x2000017C)
T24D0 777:274.304 - 0.112ms returns 0
T24D0 777:274.382 JLINK_WriteReg(R10, 0x00000000)
T24D0 777:274.457 - 0.113ms returns 0
T24D0 777:274.566 JLINK_WriteReg(R11, 0x00000000)
T24D0 777:274.641 - 0.111ms returns 0
T24D0 777:274.717 JLINK_WriteReg(R12, 0x00000000)
T24D0 777:274.792 - 0.111ms returns 0
T24D0 777:274.868 JLINK_WriteReg(R13 (SP), 0x20001000)
T24D0 777:274.944 - 0.112ms returns 0
T24D0 777:275.021 JLINK_WriteReg(R14, 0x20000001)
T24D0 777:275.096 - 0.112ms returns 0
T24D0 777:275.174 JLINK_WriteReg(R15 (PC), 0x20000108)
T24D0 777:275.249 - 0.111ms returns 0
T24D0 777:275.326 JLINK_WriteReg(XPSR, 0x01000000)
T24D0 777:275.400 - 0.111ms returns 0
T24D0 777:275.479 JLINK_WriteReg(MSP, 0x20001000)
T24D0 777:275.582 - 0.140ms returns 0
T24D0 777:275.659 JLINK_WriteReg(PSP, 0x20001000)
T24D0 777:275.734 - 0.111ms returns 0
T24D0 777:275.811 JLINK_WriteReg(CFBP, 0x00000000)
T24D0 777:275.887 - 0.113ms returns 0
T24D0 777:275.965 JLINK_SetBPEx(Addr = 0x20000000, Type = 0xFFFFFFF2)
T24D0 777:276.041 - 0.113ms returns 0x0000000A
T24D0 777:276.118 JLINK_Go()
T24D0 777:276.201   CPU_ReadMem(4 bytes @ 0xE0001000)
T24D0 777:282.819 - 6.787ms
T24D0 777:282.964 JLINK_IsHalted()
T24D0 777:284.401 - 1.528ms returns FALSE
T24D0 777:284.550 JLINK_HasError()
T24D0 777:288.654 JLINK_IsHalted()
T24D0 777:293.576   CPU_ReadMem(2 bytes @ 0x20000000)
T24D0 777:295.038 - 6.446ms returns TRUE
T24D0 777:295.147 JLINK_ReadReg(R15 (PC))
T24D0 777:295.230 - 0.124ms returns 0x20000000
T24D0 777:295.312 JLINK_ClrBPEx(BPHandle = 0x0000000A)
T24D0 777:295.393 - 0.122ms returns 0x00
T24D0 777:295.474 JLINK_ReadReg(R0)
T24D0 777:295.557 - 0.121ms returns 0x00000000
T24D0 777:296.090 JLINK_WriteMem(0x20000180, 0x280 Bytes, ...)
T24D0 777:296.192   Data:  B8 EE C0 0A DF ED 0C 0A 20 EE 20 0A 10 EE 10 7A ...
T24D0 777:296.313   CPU_WriteMem(640 bytes @ 0x20000180)
T24D0 777:304.777 - 8.769ms returns 0x280
T24D0 777:304.905 JLINK_WriteMem(0x20000400, 0x180 Bytes, ...)
T24D0 777:304.981   Data:  80 EE 81 0A D0 ED 02 0A 20 EE 20 0A 80 ED 07 0A ...
T24D0 777:305.103   CPU_WriteMem(384 bytes @ 0x20000400)
T24D0 777:310.733 - 5.912ms returns 0x180
T24D0 777:310.869 JLINK_HasError()
T24D0 777:310.952 JLINK_WriteReg(R0, 0x08001400)
T24D0 777:311.034 - 0.123ms returns 0
T24D0 777:311.123 JLINK_WriteReg(R1, 0x00000400)
T24D0 777:311.201 - 0.116ms returns 0
T24D0 777:311.281 JLINK_WriteReg(R2, 0x20000180)
T24D0 777:311.357 - 0.118ms returns 0
T24D0 777:311.482 JLINK_WriteReg(R3, 0x00000000)
T24D0 777:311.564 - 0.121ms returns 0
T24D0 777:311.643 JLINK_WriteReg(R4, 0x00000000)
T24D0 777:311.718 - 0.111ms returns 0
T24D0 777:311.794 JLINK_WriteReg(R5, 0x00000000)
T24D0 777:311.872 - 0.115ms returns 0
T24D0 777:311.949 JLINK_WriteReg(R6, 0x00000000)
T24D0 777:312.024 - 0.112ms returns 0
T24D0 777:312.101 JLINK_WriteReg(R7, 0x00000000)
T24D0 777:312.177 - 0.113ms returns 0
T24D0 777:312.256 JLINK_WriteReg(R8, 0x00000000)
T24D0 777:312.335 - 0.117ms returns 0
T24D0 777:312.432 JLINK_WriteReg(R9, 0x2000017C)
T24D0 777:312.521 - 0.126ms returns 0
T24D0 777:312.599 JLINK_WriteReg(R10, 0x00000000)
T24D0 777:312.674 - 0.112ms returns 0
T24D0 777:312.752 JLINK_WriteReg(R11, 0x00000000)
T24D0 777:312.827 - 0.111ms returns 0
T24D0 777:312.903 JLINK_WriteReg(R12, 0x00000000)
T24D0 777:312.977 - 0.111ms returns 0
T24D0 777:313.054 JLINK_WriteReg(R13 (SP), 0x20001000)
T24D0 777:313.131 - 0.114ms returns 0
T24D0 777:313.209 JLINK_WriteReg(R14, 0x20000001)
T24D0 777:313.284 - 0.112ms returns 0
T24D0 777:313.361 JLINK_WriteReg(R15 (PC), 0x20000108)
T24D0 777:313.480 - 0.156ms returns 0
T24D0 777:313.557 JLINK_WriteReg(XPSR, 0x01000000)
T24D0 777:313.632 - 0.112ms returns 0
T24D0 777:313.710 JLINK_WriteReg(MSP, 0x20001000)
T24D0 777:313.784 - 0.111ms returns 0
T24D0 777:313.862 JLINK_WriteReg(PSP, 0x20001000)
T24D0 777:313.937 - 0.113ms returns 0
T24D0 777:314.017 JLINK_WriteReg(CFBP, 0x00000000)
T24D0 777:314.092 - 0.112ms returns 0
T24D0 777:314.169 JLINK_SetBPEx(Addr = 0x20000000, Type = 0xFFFFFFF2)
T24D0 777:314.245 - 0.114ms returns 0x0000000B
T24D0 777:314.324 JLINK_Go()
T24D0 777:314.444   CPU_ReadMem(4 bytes @ 0xE0001000)
T24D0 777:320.922 - 6.685ms
T24D0 777:321.060 JLINK_IsHalted()
T24D0 777:322.722 - 1.749ms returns FALSE
T24D0 777:322.863 JLINK_HasError()
T24D0 777:326.575 JLINK_IsHalted()
T24D0 777:331.805   CPU_ReadMem(2 bytes @ 0x20000000)
T24D0 777:332.946 - 6.434ms returns TRUE
T24D0 777:333.056 JLINK_ReadReg(R15 (PC))
T24D0 777:333.140 - 0.122ms returns 0x20000000
T24D0 777:333.219 JLINK_ClrBPEx(BPHandle = 0x0000000B)
T24D0 777:333.297 - 0.118ms returns 0x00
T24D0 777:333.409 JLINK_ReadReg(R0)
T24D0 777:333.513 - 0.142ms returns 0x00000000
T24D0 777:334.066 JLINK_WriteMem(0x20000180, 0x280 Bytes, ...)
T24D0 777:334.160   Data:  00 0A 80 EE 20 1A 80 ED 0C 1A 80 ED 05 1A 00 E0 ...
T24D0 777:334.283   CPU_WriteMem(640 bytes @ 0x20000180)
T24D0 777:343.364 - 9.389ms returns 0x280
T24D0 777:343.501 JLINK_WriteMem(0x20000400, 0x180 Bytes, ...)
T24D0 777:343.579   Data:  03 90 01 A9 3C 48 01 F0 25 F8 3C 48 3C 49 08 60 ...
T24D0 777:343.843   CPU_WriteMem(384 bytes @ 0x20000400)
T24D0 777:349.893 - 6.446ms returns 0x180
T24D0 777:349.995 JLINK_HasError()
T24D0 777:350.079 JLINK_WriteReg(R0, 0x08001800)
T24D0 777:350.160 - 0.119ms returns 0
T24D0 777:350.240 JLINK_WriteReg(R1, 0x00000400)
T24D0 777:350.346 - 0.143ms returns 0
T24D0 777:350.423 JLINK_WriteReg(R2, 0x20000180)
T24D0 777:350.499 - 0.113ms returns 0
T24D0 777:350.577 JLINK_WriteReg(R3, 0x00000000)
T24D0 777:350.651 - 0.111ms returns 0
T24D0 777:350.728 JLINK_WriteReg(R4, 0x00000000)
T24D0 777:350.804 - 0.113ms returns 0
T24D0 777:350.882 JLINK_WriteReg(R5, 0x00000000)
T24D0 777:350.957 - 0.112ms returns 0
T24D0 777:351.035 JLINK_WriteReg(R6, 0x00000000)
T24D0 777:351.111 - 0.113ms returns 0
T24D0 777:351.189 JLINK_WriteReg(R7, 0x00000000)
T24D0 777:351.264 - 0.131ms returns 0
T24D0 777:351.362 JLINK_WriteReg(R8, 0x00000000)
T24D0 777:351.451 - 0.126ms returns 0
T24D0 777:351.529 JLINK_WriteReg(R9, 0x2000017C)
T24D0 777:351.668 - 0.177ms returns 0
T24D0 777:351.748 JLINK_WriteReg(R10, 0x00000000)
T24D0 777:351.824 - 0.112ms returns 0
T24D0 777:351.901 JLINK_WriteReg(R11, 0x00000000)
T24D0 777:351.977 - 0.113ms returns 0
T24D0 777:352.088 JLINK_WriteReg(R12, 0x00000000)
T24D0 777:352.165 - 0.117ms returns 0
T24D0 777:352.319 JLINK_WriteReg(R13 (SP), 0x20001000)
T24D0 777:352.431 - 0.151ms returns 0
T24D0 777:352.525 JLINK_WriteReg(R14, 0x20000001)
T24D0 777:352.615 - 0.128ms returns 0
T24D0 777:352.695 JLINK_WriteReg(R15 (PC), 0x20000108)
T24D0 777:352.771 - 0.114ms returns 0
T24D0 777:352.850 JLINK_WriteReg(XPSR, 0x01000000)
T24D0 777:352.925 - 0.112ms returns 0
T24D0 777:353.004 JLINK_WriteReg(MSP, 0x20001000)
T24D0 777:353.080 - 0.114ms returns 0
T24D0 777:353.159 JLINK_WriteReg(PSP, 0x20001000)
T24D0 777:353.236 - 0.114ms returns 0
T24D0 777:353.350 JLINK_WriteReg(CFBP, 0x00000000)
T24D0 777:353.428 - 0.117ms returns 0
T24D0 777:353.508 JLINK_SetBPEx(Addr = 0x20000000, Type = 0xFFFFFFF2)
T24D0 777:353.588 - 0.117ms returns 0x0000000C
T24D0 777:353.666 JLINK_Go()
T24D0 777:353.752   CPU_ReadMem(4 bytes @ 0xE0001000)
T24D0 777:359.910 - 6.296ms
T24D0 777:360.007 JLINK_IsHalted()
T24D0 777:361.154 - 1.198ms returns FALSE
T24D0 777:361.275 JLINK_HasError()
T24D0 777:364.337 JLINK_IsHalted()
T24D0 777:369.052   CPU_ReadMem(2 bytes @ 0x20000000)
T24D0 777:370.517 - 6.230ms returns TRUE
T24D0 777:370.613 JLINK_ReadReg(R15 (PC))
T24D0 777:370.692 - 0.117ms returns 0x20000000
T24D0 777:370.770 JLINK_ClrBPEx(BPHandle = 0x0000000C)
T24D0 777:370.845 - 0.111ms returns 0x00
T24D0 777:370.921 JLINK_ReadReg(R0)
T24D0 777:370.995 - 0.112ms returns 0x00000000
T24D0 777:371.474 JLINK_WriteMem(0x20000180, 0x280 Bytes, ...)
T24D0 777:371.561   Data:  20 68 40 68 00 F4 80 60 28 B1 20 6C 20 F4 00 50 ...
T24D0 777:371.679   CPU_WriteMem(640 bytes @ 0x20000180)
T24D0 777:380.292 - 8.887ms returns 0x280
T24D0 777:380.405 JLINK_WriteMem(0x20000400, 0x180 Bytes, ...)
T24D0 777:380.482   Data:  00 10 60 62 01 20 7D E7 60 6A 40 F4 80 20 60 62 ...
T24D0 777:380.598   CPU_WriteMem(384 bytes @ 0x20000400)
T24D0 777:386.319 - 5.989ms returns 0x180
T24D0 777:386.442 JLINK_HasError()
T24D0 777:386.523 JLINK_WriteReg(R0, 0x08001C00)
T24D0 777:386.630 - 0.145ms returns 0
T24D0 777:386.708 JLINK_WriteReg(R1, 0x00000400)
T24D0 777:386.785 - 0.114ms returns 0
T24D0 777:386.861 JLINK_WriteReg(R2, 0x20000180)
T24D0 777:386.935 - 0.111ms returns 0
T24D0 777:387.011 JLINK_WriteReg(R3, 0x00000000)
T24D0 777:387.090 - 0.115ms returns 0
T24D0 777:387.166 JLINK_WriteReg(R4, 0x00000000)
T24D0 777:387.277 - 0.148ms returns 0
T24D0 777:387.356 JLINK_WriteReg(R5, 0x00000000)
T24D0 777:387.432 - 0.113ms returns 0
T24D0 777:387.509 JLINK_WriteReg(R6, 0x00000000)
T24D0 777:387.587 - 0.114ms returns 0
T24D0 777:387.664 JLINK_WriteReg(R7, 0x00000000)
T24D0 777:387.741 - 0.113ms returns 0
T24D0 777:387.818 JLINK_WriteReg(R8, 0x00000000)
T24D0 777:387.894 - 0.113ms returns 0
T24D0 777:387.972 JLINK_WriteReg(R9, 0x2000017C)
T24D0 777:388.048 - 0.113ms returns 0
T24D0 777:388.125 JLINK_WriteReg(R10, 0x00000000)
T24D0 777:388.233 - 0.161ms returns 0
T24D0 777:388.326 JLINK_WriteReg(R11, 0x00000000)
T24D0 777:388.402 - 0.113ms returns 0
T24D0 777:388.479 JLINK_WriteReg(R12, 0x00000000)
T24D0 777:388.554 - 0.112ms returns 0
T24D0 777:388.631 JLINK_WriteReg(R13 (SP), 0x20001000)
T24D0 777:388.708 - 0.113ms returns 0
T24D0 777:388.784 JLINK_WriteReg(R14, 0x20000001)
T24D0 777:388.860 - 0.112ms returns 0
T24D0 777:388.936 JLINK_WriteReg(R15 (PC), 0x20000108)
T24D0 777:389.011 - 0.111ms returns 0
T24D0 777:389.088 JLINK_WriteReg(XPSR, 0x01000000)
T24D0 777:389.162 - 0.113ms returns 0
T24D0 777:389.242 JLINK_WriteReg(MSP, 0x20001000)
T24D0 777:389.318 - 0.113ms returns 0
T24D0 777:389.395 JLINK_WriteReg(PSP, 0x20001000)
T24D0 777:389.470 - 0.111ms returns 0
T24D0 777:389.547 JLINK_WriteReg(CFBP, 0x00000000)
T24D0 777:389.621 - 0.111ms returns 0
T24D0 777:389.699 JLINK_SetBPEx(Addr = 0x20000000, Type = 0xFFFFFFF2)
T24D0 777:389.775 - 0.112ms returns 0x0000000D
T24D0 777:389.852 JLINK_Go()
T24D0 777:389.936   CPU_ReadMem(4 bytes @ 0xE0001000)
T24D0 777:395.622 - 5.826ms
T24D0 777:395.725 JLINK_IsHalted()
T24D0 777:396.929 - 1.256ms returns FALSE
T24D0 777:397.025 JLINK_HasError()
T24D0 777:399.225 JLINK_IsHalted()
T24D0 777:404.254   CPU_ReadMem(2 bytes @ 0x20000000)
T24D0 777:405.587 - 6.415ms returns TRUE
T24D0 777:405.686 JLINK_ReadReg(R15 (PC))
T24D0 777:405.766 - 0.117ms returns 0x20000000
T24D0 777:405.843 JLINK_ClrBPEx(BPHandle = 0x0000000D)
T24D0 777:405.922 - 0.116ms returns 0x00
T24D0 777:406.000 JLINK_ReadReg(R0)
T24D0 777:406.076 - 0.115ms returns 0x00000000
T24D0 777:406.560 JLINK_WriteMem(0x20000180, 0x280 Bytes, ...)
T24D0 777:406.645   Data:  01 10 00 68 00 F0 04 00 90 60 90 68 40 B9 20 68 ...
T24D0 777:406.765   CPU_WriteMem(640 bytes @ 0x20000180)
T24D0 777:415.809 - 9.334ms returns 0x280
T24D0 777:415.942 JLINK_WriteMem(0x20000400, 0x180 Bytes, ...)
T24D0 777:416.021   Data:  03 00 10 B1 20 46 00 F0 9F F9 06 F0 40 00 38 B1 ...
T24D0 777:416.172   CPU_WriteMem(384 bytes @ 0x20000400)
T24D0 777:422.295 - 6.494ms returns 0x180
T24D0 777:422.487 JLINK_HasError()
T24D0 777:422.573 JLINK_WriteReg(R0, 0x08002000)
T24D0 777:422.656 - 0.121ms returns 0
T24D0 777:422.737 JLINK_WriteReg(R1, 0x00000400)
T24D0 777:422.816 - 0.119ms returns 0
T24D0 777:422.898 JLINK_WriteReg(R2, 0x20000180)
T24D0 777:422.977 - 0.117ms returns 0
T24D0 777:423.063 JLINK_WriteReg(R3, 0x00000000)
T24D0 777:423.211 - 0.200ms returns 0
T24D0 777:423.308 JLINK_WriteReg(R4, 0x00000000)
T24D0 777:423.387 - 0.116ms returns 0
T24D0 777:423.465 JLINK_WriteReg(R5, 0x00000000)
T24D0 777:423.540 - 0.112ms returns 0
T24D0 777:423.618 JLINK_WriteReg(R6, 0x00000000)
T24D0 777:423.693 - 0.112ms returns 0
T24D0 777:423.770 JLINK_WriteReg(R7, 0x00000000)
T24D0 777:423.845 - 0.112ms returns 0
T24D0 777:423.923 JLINK_WriteReg(R8, 0x00000000)
T24D0 777:423.999 - 0.113ms returns 0
T24D0 777:424.122 JLINK_WriteReg(R9, 0x2000017C)
T24D0 777:424.211 - 0.126ms returns 0
T24D0 777:424.288 JLINK_WriteReg(R10, 0x00000000)
T24D0 777:424.365 - 0.114ms returns 0
T24D0 777:424.442 JLINK_WriteReg(R11, 0x00000000)
T24D0 777:424.517 - 0.112ms returns 0
T24D0 777:424.595 JLINK_WriteReg(R12, 0x00000000)
T24D0 777:424.670 - 0.112ms returns 0
T24D0 777:424.747 JLINK_WriteReg(R13 (SP), 0x20001000)
T24D0 777:424.824 - 0.114ms returns 0
T24D0 777:424.901 JLINK_WriteReg(R14, 0x20000001)
T24D0 777:424.978 - 0.113ms returns 0
T24D0 777:425.057 JLINK_WriteReg(R15 (PC), 0x20000108)
T24D0 777:425.134 - 0.114ms returns 0
T24D0 777:425.211 JLINK_WriteReg(XPSR, 0x01000000)
T24D0 777:425.286 - 0.113ms returns 0
T24D0 777:425.365 JLINK_WriteReg(MSP, 0x20001000)
